
T21C0 000:318 SEGGER J-Link V5.10h Log File (0000ms, 0270ms total)
T21C0 000:318 DLL Compiled: Jan 21 2016 19:24:29 (0000ms, 0270ms total)
T21C0 000:318 Logging started @ 2019-01-06 14:35 (0000ms, 0270ms total)
T21C0 000:318 JLINK_SetWarnOutHandler(...) (0001ms, 0271ms total)
T21C0 000:319 JLINK_OpenEx(...)
Firmware: J-Link ARM-OB STM32 compiled Aug 22 2012 19:52:04
Hardware: V7.00
S/N: 20090928
Feature(s): RDI,FlashDL,FlashBP,JFlash,GDB  returns O.K. (0264ms, 0535ms total)
T21C0 000:583 JLINK_SetErrorOutHandler(...) (0000ms, 0535ms total)
T21C0 000:583 JLINK_ExecCommand("ProjectFile = "F:\Project\PaperDetect\Paper_Detect\MDK-ARM\JLinkSettings.ini"", ...)  returns 0x00 (0002ms, 0537ms total)
T21C0 000:590 JLINK_ExecCommand("Device = STM32F103C8", ...)Device "STM32F103C8" selected.  returns 0x00 (0005ms, 0542ms total)
T21C0 000:595 JLINK_ExecCommand("DisableConnectionTimeout", ...)  returns 0x01 (0000ms, 0542ms total)
T21C0 000:595 JLINK_GetHardwareVersion()  returns 0x11170 (0000ms, 0542ms total)
T21C0 000:595 JLINK_GetDLLVersion()  returns 51008 (0000ms, 0542ms total)
T21C0 000:596 JLINK_GetFirmwareString(...) (0000ms, 0542ms total)
T21C0 000:607 JLINK_GetDLLVersion()  returns 51008 (0001ms, 0543ms total)
T21C0 000:608 JLINK_GetCompileDateTime() (0000ms, 0543ms total)
T21C0 000:611 JLINK_GetFirmwareString(...) (0000ms, 0543ms total)
T21C0 000:613 JLINK_GetHardwareVersion()  returns 0x11170 (0000ms, 0543ms total)
T21C0 000:623 JLINK_TIF_Select(JLINKARM_TIF_SWD)  returns 0x00 (0002ms, 0545ms total)
T21C0 000:625 JLINK_SetSpeed(5000) (0000ms, 0545ms total)
T21C0 000:625 JLINK_GetId() >0x108 TIF>Found SWD-DP with ID 0x1BA01477 >0x0D TIF> >0x28 TIF> >0x0D TIF> >0x28 TIF> >0x0D TIF> >0x28 TIF> >0x0D TIF> >0x28 TIF> >0x0D TIF> >0x21 TIF> >0x0D TIF> >0x28 TIF> >0x0D TIF> >0x28 TIF> >0x0D TIF> >0x28 TIF> >0x0D TIF> >0x21 TIF> >0x0D TIF> >0x21 TIF> >0x0D TIF> >0x28 TIF> >0x0D TIF> >0x21 TIF> >0x0D TIF> >0x21 TIF> >0x0D TIF> >0x28 TIF> >0x0D TIF> >0x28 TIF> >0x0D TIF> >0x28 TIF> >0x0D TIF> >0x21 TIF> >0x0D TIF> >0x21 TIF> >0x0D TIF> >0x28 TIF> >0x0D TIF>
 >0x21 TIF> >0x0D TIF> >0x21 TIF> >0x108 TIF>Found SWD-DP with ID 0x1BA01477 >0x0D TIF> >0x28 TIF> >0x0D TIF> >0x28 TIF> >0x0D TIF> >0x28 TIF> >0x0D TIF> >0x28 TIF> >0x0D TIF> >0x21 TIF> >0x0D TIF> >0x28 TIF> >0x0D TIF> >0x28 TIF> >0x0D TIF> >0x21 TIF> >0x0D TIF> >0x21 TIF> >0x0D TIF> >0x21 TIF> >0x0D TIF> >0x28 TIF> >0x0D TIF> >0x28 TIF> >0x0D TIF> >0x28 TIF> >0x0D TIF> >0x21 TIF> >0x0D TIF> >0x21 TIF> >0x0D TIF> >0x28 TIF> >0x0D TIF> >0x21 TIF> >0x0D TIF> >0x21 TIF>Found Cortex-M3 r1p1, Little endian.
 -- CPU_ReadMem(4 bytes @ 0xE000EDF0) -- CPU_WriteMem(4 bytes @ 0xE000EDF0) -- CPU_ReadMem(4 bytes @ 0xE0002000)FPUnit: 6 code (BP) slots and 2 literal slots -- CPU_ReadMem(4 bytes @ 0xE000EDFC) -- CPU_WriteMem(4 bytes @ 0xE000EDFC) -- CPU_ReadMem(4 bytes @ 0xE0001000) -- CPU_WriteMem(4 bytes @ 0xE0001000) -- CPU_ReadMem(4 bytes @ 0xE000ED88) -- CPU_WriteMem(4 bytes @ 0xE000ED88) -- CPU_ReadMem(4 bytes @ 0xE000ED88) -- CPU_WriteMem(4 bytes @ 0xE000ED88)CoreSight components:ROMTbl 0 @ E00FF000
 -- CPU_ReadMem(16 bytes @ 0xE00FF000) -- CPU_ReadMem(16 bytes @ 0xE000EFF0) -- CPU_ReadMem(16 bytes @ 0xE000EFE0)ROMTbl 0 [0]: FFF0F000, CID: B105E00D, PID: 001BB000 SCS -- CPU_ReadMem(16 bytes @ 0xE0001FF0) -- CPU_ReadMem(16 bytes @ 0xE0001FE0)ROMTbl 0 [1]: FFF02000, CID: B105E00D, PID: 001BB002 DWT -- CPU_ReadMem(16 bytes @ 0xE0002FF0) -- CPU_ReadMem(16 bytes @ 0xE0002FE0)ROMTbl 0 [2]: FFF03000, CID: B105E00D, PID: 000BB003 FPB -- CPU_ReadMem(16 bytes @ 0xE0000FF0)
 -- CPU_ReadMem(16 bytes @ 0xE0000FE0)ROMTbl 0 [3]: FFF01000, CID: B105E00D, PID: 001BB001 ITM -- CPU_ReadMem(16 bytes @ 0xE00FF010) -- CPU_ReadMem(16 bytes @ 0xE0040FF0) -- CPU_ReadMem(16 bytes @ 0xE0040FE0)ROMTbl 0 [4]: FFF41000, CID: B105900D, PID: 001BB923 TPIU-Lite >0x0D TIF> >0x21 TIF>  returns 0x1BA01477 (0074ms, 0619ms total)
T21C0 000:699 JLINK_GetDLLVersion()  returns 51008 (0000ms, 0619ms total)
T21C0 000:699 JLINK_CORE_GetFound()  returns 0x30000FF (0000ms, 0619ms total)
T21C0 000:699 JLINK_GetDebugInfo(0x100) -- Value=0xE00FF000  returns 0x00 (0000ms, 0619ms total)
T21C0 000:701 JLINK_GetDebugInfo(0x100) -- Value=0xE00FF000  returns 0x00 (0000ms, 0619ms total)
T21C0 000:701 JLINK_GetDebugInfo(0x101) -- Value=0x00000000  returns 0x00 (0000ms, 0619ms total)
T21C0 000:701 JLINK_ReadMem (0xE0041FF0, 0x0010 Bytes, ...) -- CPU is running -- CPU_ReadMem(16 bytes @ 0xE0041FF0) - Data: 00 00 00 00 00 00 00 00 00 00 00 00 00 00 00 00  returns 0x00 (0001ms, 0620ms total)
T21C0 000:702 JLINK_GetDebugInfo(0x102) -- Value=0x00000000  returns 0x00 (0000ms, 0620ms total)
T21C0 000:702 JLINK_GetDebugInfo(0x103) -- Value=0xE0040000  returns 0x00 (0000ms, 0620ms total)
T21C0 000:702 JLINK_GetDebugInfo(0x104) -- Value=0xE0000000  returns 0x00 (0000ms, 0620ms total)
T21C0 000:702 JLINK_GetDebugInfo(0x105) -- Value=0xE0001000  returns 0x00 (0000ms, 0620ms total)
T21C0 000:702 JLINK_GetDebugInfo(0x106) -- Value=0xE0002000  returns 0x00 (0000ms, 0620ms total)
T21C0 000:702 JLINK_GetDebugInfo(0x107) -- Value=0xE000E000  returns 0x00 (0000ms, 0620ms total)
T21C0 000:702 JLINK_GetDebugInfo(0x10C) -- Value=0xE000EDF0  returns 0x00 (0000ms, 0620ms total)
T21C0 000:702 JLINK_ReadMemU32(0xE000ED00, 0x0001 Items, ...) -- CPU is running -- CPU_ReadMem(4 bytes @ 0xE000ED00) - Data: 31 C2 1F 41  returns 0x01 (0001ms, 0621ms total)
T21C0 000:703 JLINK_SetResetType(JLINKARM_RESET_TYPE_NORMAL)  returns JLINKARM_RESET_TYPE_NORMAL (0000ms, 0621ms total)
T21C0 000:703 JLINK_Reset() -- CPU is running -- CPU_WriteMem(4 bytes @ 0xE000EDF0) -- CPU is running -- CPU_WriteMem(4 bytes @ 0xE000EDFC) >0x35 TIF> -- CPU is running -- CPU_WriteMem(4 bytes @ 0xE000ED0C) -- CPU is running -- CPU_ReadMem(4 bytes @ 0xE000EDF0) -- CPU is running -- CPU_ReadMem(4 bytes @ 0xE000EDF0) -- CPU is running -- CPU_WriteMem(4 bytes @ 0xE000EDF0) -- CPU is running -- CPU_WriteMem(4 bytes @ 0xE000EDFC) -- CPU is running -- CPU_ReadMem(4 bytes @ 0xE000EDF0)
 -- CPU_WriteMem(4 bytes @ 0xE0002000) -- CPU_ReadMem(4 bytes @ 0xE000EDFC) -- CPU_ReadMem(4 bytes @ 0xE0001000) (0019ms, 0640ms total)
T21C0 000:722 JLINK_Halt()  returns 0x00 (0000ms, 0640ms total)
T21C0 000:722 JLINK_IsHalted()  returns TRUE (0000ms, 0640ms total)
T21C0 000:722 JLINK_ReadMemU32(0xE000EDF0, 0x0001 Items, ...) -- CPU_ReadMem(4 bytes @ 0xE000EDF0) - Data: 03 00 03 00  returns 0x01 (0001ms, 0641ms total)
T21C0 000:723 JLINK_WriteU32(0xE000EDF0, 0xA05F0003) -- CPU_WriteMem(4 bytes @ 0xE000EDF0)  returns 0x00 (0001ms, 0642ms total)
T21C0 000:724 JLINK_WriteU32(0xE000EDFC, 0x01000000) -- CPU_WriteMem(4 bytes @ 0xE000EDFC)  returns 0x00 (0000ms, 0642ms total)
T21C0 000:731 JLINK_GetHWStatus(...)  returns 0x00 (0000ms, 0642ms total)
T21C0 000:738 JLINK_GetNumBPUnits(Type = 0xFFFFFF00)  returns 0x06 (0000ms, 0642ms total)
T21C0 000:738 JLINK_GetNumBPUnits(Type = 0xF0)  returns 0x2000 (0000ms, 0642ms total)
T21C0 000:738 JLINK_GetNumWPUnits()  returns 0x04 (0000ms, 0642ms total)
T21C0 000:743 JLINK_GetSpeed()  returns 0xFA0 (0001ms, 0643ms total)
T21C0 000:747 JLINK_ReadMemU32(0xE000E004, 0x0001 Items, ...) -- CPU_ReadMem(4 bytes @ 0xE000E004) - Data: 01 00 00 00  returns 0x01 (0001ms, 0644ms total)
T21C0 000:748 JLINK_ReadMemU32(0xE000E004, 0x0001 Items, ...) -- CPU_ReadMem(4 bytes @ 0xE000E004) - Data: 01 00 00 00  returns 0x01 (0000ms, 0644ms total)
T21C0 000:748 JLINK_WriteMem(0xE0001000, 0x001C Bytes, ...) - Data: 01 00 00 00 00 00 00 00 00 00 00 00 00 00 00 00 ... -- CPU_WriteMem(28 bytes @ 0xE0001000)  returns 0x1C (0002ms, 0646ms total)
T21C0 000:750 JLINK_ReadMem (0xE0001000, 0x001C Bytes, ...) -- CPU_ReadMem(28 bytes @ 0xE0001000) - Data: 01 00 00 40 00 00 00 00 00 00 00 00 00 00 00 00 ...  returns 0x00 (0001ms, 0647ms total)
T21C0 000:751 JLINK_Halt()  returns 0x00 (0000ms, 0647ms total)
T21C0 000:751 JLINK_IsHalted()  returns TRUE (0000ms, 0647ms total)
T21C0 000:754 JLINK_WriteMem(0x20000000, 0x0164 Bytes, ...) - Data: 00 BE 0A E0 0D 78 2D 06 68 40 08 24 40 00 00 D3 ... -- CPU_WriteMem(356 bytes @ 0x20000000)  returns 0x164 (0005ms, 0652ms total)
T21C0 000:759 JLINK_WriteReg(R0, 0x08000000)  returns 0x00 (0000ms, 0652ms total)
T21C0 000:759 JLINK_WriteReg(R1, 0x044AA200)  returns 0x00 (0000ms, 0652ms total)
T21C0 000:759 JLINK_WriteReg(R2, 0x00000001)  returns 0x00 (0000ms, 0652ms total)
T21C0 000:759 JLINK_WriteReg(R3, 0x00000000)  returns 0x00 (0000ms, 0652ms total)
T21C0 000:759 JLINK_WriteReg(R4, 0x00000000)  returns 0x00 (0000ms, 0652ms total)
T21C0 000:759 JLINK_WriteReg(R5, 0x00000000)  returns 0x00 (0000ms, 0652ms total)
T21C0 000:759 JLINK_WriteReg(R6, 0x00000000)  returns 0x00 (0000ms, 0652ms total)
T21C0 000:759 JLINK_WriteReg(R7, 0x00000000)  returns 0x00 (0000ms, 0652ms total)
T21C0 000:759 JLINK_WriteReg(R8, 0x00000000)  returns 0x00 (0000ms, 0652ms total)
T21C0 000:759 JLINK_WriteReg(R9, 0x20000160)  returns 0x00 (0000ms, 0652ms total)
T21C0 000:759 JLINK_WriteReg(R10, 0x00000000)  returns 0x00 (0000ms, 0652ms total)
T21C0 000:759 JLINK_WriteReg(R11, 0x00000000)  returns 0x00 (0000ms, 0652ms total)
T21C0 000:759 JLINK_WriteReg(R12, 0x00000000)  returns 0x00 (0000ms, 0652ms total)
T21C0 000:759 JLINK_WriteReg(R13 (SP), 0x20001000)  returns 0x00 (0000ms, 0652ms total)
T21C0 000:759 JLINK_WriteReg(R14, 0x20000001)  returns 0x00 (0000ms, 0652ms total)
T21C0 000:759 JLINK_WriteReg(R15 (PC), 0x20000038)  returns 0x00 (0000ms, 0652ms total)
T21C0 000:759 JLINK_WriteReg(XPSR, 0x01000000)  returns 0x00 (0000ms, 0652ms total)
T21C0 000:759 JLINK_WriteReg(MSP, 0x20001000)  returns 0x00 (0000ms, 0652ms total)
T21C0 000:759 JLINK_WriteReg(PSP, 0x20001000)  returns 0x00 (0000ms, 0652ms total)
T21C0 000:759 JLINK_WriteReg(CFBP, 0x00000000)  returns 0x00 (0000ms, 0652ms total)
T21C0 000:759 JLINK_SetBPEx(Addr = 0x20000000, Type = 0xFFFFFFF2) -- CPU_ReadMem(2 bytes @ 0x20000000)  returns 0x00000001 (0001ms, 0653ms total)
T21C0 000:760 JLINK_Go() -- CPU_WriteMem(2 bytes @ 0x20000000) -- CPU_ReadMem(4 bytes @ 0xE0001000) -- CPU_WriteMem(4 bytes @ 0xE0002008) -- CPU_WriteMem(4 bytes @ 0xE000200C) -- CPU_WriteMem(4 bytes @ 0xE0002010) -- CPU_WriteMem(4 bytes @ 0xE0002014) -- CPU_WriteMem(4 bytes @ 0xE0002018) -- CPU_WriteMem(4 bytes @ 0xE000201C) -- CPU_WriteMem(4 bytes @ 0xE0001004) (0008ms, 0661ms total)
T21C0 000:768 JLINK_IsHalted() -- CPU_ReadMem(2 bytes @ 0x20000000)  returns TRUE (0004ms, 0665ms total)
T21C0 000:772 JLINK_ReadReg(R15 (PC))  returns 0x20000000 (0000ms, 0661ms total)
T21C0 000:772 JLINK_ClrBPEx(BPHandle = 0x00000001)  returns 0x00 (0001ms, 0662ms total)
T21C0 000:773 JLINK_ReadReg(R0)  returns 0x00000000 (0000ms, 0662ms total)
T21C0 000:773 JLINK_WriteReg(R0, 0x08000000)  returns 0x00 (0000ms, 0662ms total)
T21C0 000:773 JLINK_WriteReg(R1, 0x044AA200)  returns 0x00 (0000ms, 0662ms total)
T21C0 000:773 JLINK_WriteReg(R2, 0x00000001)  returns 0x00 (0000ms, 0662ms total)
T21C0 000:773 JLINK_WriteReg(R3, 0x00000000)  returns 0x00 (0000ms, 0662ms total)
T21C0 000:773 JLINK_WriteReg(R4, 0x00000000)  returns 0x00 (0000ms, 0662ms total)
T21C0 000:773 JLINK_WriteReg(R5, 0x00000000)  returns 0x00 (0000ms, 0662ms total)
T21C0 000:773 JLINK_WriteReg(R6, 0x00000000)  returns 0x00 (0000ms, 0662ms total)
T21C0 000:773 JLINK_WriteReg(R7, 0x00000000)  returns 0x00 (0000ms, 0662ms total)
T21C0 000:773 JLINK_WriteReg(R8, 0x00000000)  returns 0x00 (0000ms, 0662ms total)
T21C0 000:773 JLINK_WriteReg(R9, 0x20000160)  returns 0x00 (0000ms, 0662ms total)
T21C0 000:773 JLINK_WriteReg(R10, 0x00000000)  returns 0x00 (0000ms, 0662ms total)
T21C0 000:773 JLINK_WriteReg(R11, 0x00000000)  returns 0x00 (0000ms, 0662ms total)
T21C0 000:773 JLINK_WriteReg(R12, 0x00000000)  returns 0x00 (0000ms, 0662ms total)
T21C0 000:773 JLINK_WriteReg(R13 (SP), 0x20001000)  returns 0x00 (0000ms, 0662ms total)
T21C0 000:773 JLINK_WriteReg(R14, 0x20000001)  returns 0x00 (0000ms, 0662ms total)
T21C0 000:773 JLINK_WriteReg(R15 (PC), 0x2000007C)  returns 0x00 (0000ms, 0662ms total)
T21C0 000:773 JLINK_WriteReg(XPSR, 0x01000000)  returns 0x00 (0000ms, 0662ms total)
T21C0 000:773 JLINK_WriteReg(MSP, 0x20001000)  returns 0x00 (0000ms, 0662ms total)
T21C0 000:773 JLINK_WriteReg(PSP, 0x20001000)  returns 0x00 (0000ms, 0662ms total)
T21C0 000:773 JLINK_WriteReg(CFBP, 0x00000000)  returns 0x00 (0000ms, 0662ms total)
T21C0 000:773 JLINK_SetBPEx(Addr = 0x20000000, Type = 0xFFFFFFF2)  returns 0x00000002 (0000ms, 0662ms total)
T21C0 000:773 JLINK_Go() -- CPU_ReadMem(4 bytes @ 0xE0001000) (0003ms, 0665ms total)
T21C0 000:776 JLINK_IsHalted()  returns FALSE (0001ms, 0666ms total)
T21C0 000:823 JLINK_IsHalted() -- CPU_ReadMem(2 bytes @ 0x20000000)  returns TRUE (0004ms, 0669ms total)
T21C0 000:827 JLINK_ReadReg(R15 (PC))  returns 0x20000000 (0000ms, 0665ms total)
T21C0 000:827 JLINK_ClrBPEx(BPHandle = 0x00000002)  returns 0x00 (0000ms, 0665ms total)
T21C0 000:827 JLINK_ReadReg(R0)  returns 0x00000000 (0000ms, 0665ms total)
T21C0 000:878 JLINK_WriteReg(R0, 0x00000001)  returns 0x00 (0000ms, 0665ms total)
T21C0 000:878 JLINK_WriteReg(R1, 0x044AA200)  returns 0x00 (0000ms, 0665ms total)
T21C0 000:878 JLINK_WriteReg(R2, 0x00000001)  returns 0x00 (0000ms, 0665ms total)
T21C0 000:878 JLINK_WriteReg(R3, 0x00000000)  returns 0x00 (0000ms, 0665ms total)
T21C0 000:878 JLINK_WriteReg(R4, 0x00000000)  returns 0x00 (0000ms, 0665ms total)
T21C0 000:878 JLINK_WriteReg(R5, 0x00000000)  returns 0x00 (0000ms, 0665ms total)
T21C0 000:878 JLINK_WriteReg(R6, 0x00000000)  returns 0x00 (0000ms, 0665ms total)
T21C0 000:878 JLINK_WriteReg(R7, 0x00000000)  returns 0x00 (0000ms, 0665ms total)
T21C0 000:878 JLINK_WriteReg(R8, 0x00000000)  returns 0x00 (0000ms, 0665ms total)
T21C0 000:878 JLINK_WriteReg(R9, 0x20000160)  returns 0x00 (0000ms, 0665ms total)
T21C0 000:878 JLINK_WriteReg(R10, 0x00000000)  returns 0x00 (0000ms, 0665ms total)
T21C0 000:878 JLINK_WriteReg(R11, 0x00000000)  returns 0x00 (0000ms, 0665ms total)
T21C0 000:878 JLINK_WriteReg(R12, 0x00000000)  returns 0x00 (0000ms, 0665ms total)
T21C0 000:878 JLINK_WriteReg(R13 (SP), 0x20001000)  returns 0x00 (0000ms, 0665ms total)
T21C0 000:878 JLINK_WriteReg(R14, 0x20000001)  returns 0x00 (0000ms, 0665ms total)
T21C0 000:878 JLINK_WriteReg(R15 (PC), 0x2000006A)  returns 0x00 (0001ms, 0666ms total)
T21C0 000:879 JLINK_WriteReg(XPSR, 0x01000000)  returns 0x00 (0000ms, 0666ms total)
T21C0 000:879 JLINK_WriteReg(MSP, 0x20001000)  returns 0x00 (0000ms, 0666ms total)
T21C0 000:879 JLINK_WriteReg(PSP, 0x20001000)  returns 0x00 (0000ms, 0666ms total)
T21C0 000:879 JLINK_WriteReg(CFBP, 0x00000000)  returns 0x00 (0000ms, 0666ms total)
T21C0 000:879 JLINK_SetBPEx(Addr = 0x20000000, Type = 0xFFFFFFF2)  returns 0x00000003 (0000ms, 0666ms total)
T21C0 000:879 JLINK_Go() -- CPU_ReadMem(4 bytes @ 0xE0001000) (0003ms, 0669ms total)
T21C0 000:882 JLINK_IsHalted() -- CPU_ReadMem(2 bytes @ 0x20000000)  returns TRUE (0004ms, 0673ms total)
T21C0 000:886 JLINK_ReadReg(R15 (PC))  returns 0x20000000 (0000ms, 0669ms total)
T21C0 000:886 JLINK_ClrBPEx(BPHandle = 0x00000003)  returns 0x00 (0000ms, 0669ms total)
T21C0 000:886 JLINK_ReadReg(R0)  returns 0x00000000 (0000ms, 0669ms total)
T21C0 000:893 JLINK_WriteMem(0x20000000, 0x0164 Bytes, ...) - Data: 00 BE 0A E0 0D 78 2D 06 68 40 08 24 40 00 00 D3 ... -- CPU_WriteMem(356 bytes @ 0x20000000)  returns 0x164 (0005ms, 0674ms total)
T21C0 000:898 JLINK_WriteReg(R0, 0x08000000)  returns 0x00 (0000ms, 0674ms total)
T21C0 000:898 JLINK_WriteReg(R1, 0x044AA200)  returns 0x00 (0000ms, 0674ms total)
T21C0 000:898 JLINK_WriteReg(R2, 0x00000002)  returns 0x00 (0000ms, 0674ms total)
T21C0 000:898 JLINK_WriteReg(R3, 0x00000000)  returns 0x00 (0000ms, 0674ms total)
T21C0 000:898 JLINK_WriteReg(R4, 0x00000000)  returns 0x00 (0000ms, 0674ms total)
T21C0 000:898 JLINK_WriteReg(R5, 0x00000000)  returns 0x00 (0000ms, 0674ms total)
T21C0 000:898 JLINK_WriteReg(R6, 0x00000000)  returns 0x00 (0000ms, 0674ms total)
T21C0 000:898 JLINK_WriteReg(R7, 0x00000000)  returns 0x00 (0000ms, 0674ms total)
T21C0 000:898 JLINK_WriteReg(R8, 0x00000000)  returns 0x00 (0000ms, 0674ms total)
T21C0 000:898 JLINK_WriteReg(R9, 0x20000160)  returns 0x00 (0000ms, 0674ms total)
T21C0 000:898 JLINK_WriteReg(R10, 0x00000000)  returns 0x00 (0000ms, 0674ms total)
T21C0 000:898 JLINK_WriteReg(R11, 0x00000000)  returns 0x00 (0000ms, 0674ms total)
T21C0 000:898 JLINK_WriteReg(R12, 0x00000000)  returns 0x00 (0000ms, 0674ms total)
T21C0 000:898 JLINK_WriteReg(R13 (SP), 0x20001000)  returns 0x00 (0000ms, 0674ms total)
T21C0 000:898 JLINK_WriteReg(R14, 0x20000001)  returns 0x00 (0000ms, 0674ms total)
T21C0 000:898 JLINK_WriteReg(R15 (PC), 0x20000038)  returns 0x00 (0000ms, 0674ms total)
T21C0 000:898 JLINK_WriteReg(XPSR, 0x01000000)  returns 0x00 (0000ms, 0674ms total)
T21C0 000:898 JLINK_WriteReg(MSP, 0x20001000)  returns 0x00 (0000ms, 0674ms total)
T21C0 000:898 JLINK_WriteReg(PSP, 0x20001000)  returns 0x00 (0000ms, 0674ms total)
T21C0 000:898 JLINK_WriteReg(CFBP, 0x00000000)  returns 0x00 (0000ms, 0674ms total)
T21C0 000:898 JLINK_SetBPEx(Addr = 0x20000000, Type = 0xFFFFFFF2) -- CPU_ReadMem(2 bytes @ 0x20000000)  returns 0x00000004 (0001ms, 0675ms total)
T21C0 000:899 JLINK_Go() -- CPU_WriteMem(2 bytes @ 0x20000000) -- CPU_ReadMem(4 bytes @ 0xE0001000) (0004ms, 0679ms total)
T21C0 000:903 JLINK_IsHalted() -- CPU_ReadMem(2 bytes @ 0x20000000)  returns TRUE (0004ms, 0683ms total)
T21C0 000:907 JLINK_ReadReg(R15 (PC))  returns 0x20000000 (0000ms, 0679ms total)
T21C0 000:907 JLINK_ClrBPEx(BPHandle = 0x00000004)  returns 0x00 (0000ms, 0679ms total)
T21C0 000:907 JLINK_ReadReg(R0)  returns 0x00000000 (0000ms, 0679ms total)
T21C0 000:908 JLINK_WriteMem(0x20000164, 0x0400 Bytes, ...) - Data: 28 07 00 20 01 01 00 08 A7 27 00 08 99 24 00 08 ... -- CPU_WriteMem(1024 bytes @ 0x20000164)  returns 0x400 (0012ms, 0691ms total)
T21C0 000:920 JLINK_WriteReg(R0, 0x08000000)  returns 0x00 (0000ms, 0691ms total)
T21C0 000:920 JLINK_WriteReg(R1, 0x00000400)  returns 0x00 (0000ms, 0691ms total)
T21C0 000:920 JLINK_WriteReg(R2, 0x20000164)  returns 0x00 (0000ms, 0691ms total)
T21C0 000:920 JLINK_WriteReg(R3, 0x00000000)  returns 0x00 (0000ms, 0691ms total)
T21C0 000:920 JLINK_WriteReg(R4, 0x00000000)  returns 0x00 (0000ms, 0691ms total)
T21C0 000:920 JLINK_WriteReg(R5, 0x00000000)  returns 0x00 (0001ms, 0692ms total)
T21C0 000:921 JLINK_WriteReg(R6, 0x00000000)  returns 0x00 (0000ms, 0692ms total)
T21C0 000:921 JLINK_WriteReg(R7, 0x00000000)  returns 0x00 (0000ms, 0692ms total)
T21C0 000:921 JLINK_WriteReg(R8, 0x00000000)  returns 0x00 (0000ms, 0692ms total)
T21C0 000:921 JLINK_WriteReg(R9, 0x20000160)  returns 0x00 (0000ms, 0692ms total)
T21C0 000:921 JLINK_WriteReg(R10, 0x00000000)  returns 0x00 (0000ms, 0692ms total)
T21C0 000:921 JLINK_WriteReg(R11, 0x00000000)  returns 0x00 (0000ms, 0692ms total)
T21C0 000:921 JLINK_WriteReg(R12, 0x00000000)  returns 0x00 (0000ms, 0692ms total)
T21C0 000:921 JLINK_WriteReg(R13 (SP), 0x20001000)  returns 0x00 (0000ms, 0692ms total)
T21C0 000:921 JLINK_WriteReg(R14, 0x20000001)  returns 0x00 (0000ms, 0692ms total)
T21C0 000:921 JLINK_WriteReg(R15 (PC), 0x200000F4)  returns 0x00 (0000ms, 0692ms total)
T21C0 000:921 JLINK_WriteReg(XPSR, 0x01000000)  returns 0x00 (0000ms, 0692ms total)
T21C0 000:921 JLINK_WriteReg(MSP, 0x20001000)  returns 0x00 (0000ms, 0692ms total)
T21C0 000:921 JLINK_WriteReg(PSP, 0x20001000)  returns 0x00 (0000ms, 0692ms total)
T21C0 000:921 JLINK_WriteReg(CFBP, 0x00000000)  returns 0x00 (0000ms, 0692ms total)
T21C0 000:921 JLINK_SetBPEx(Addr = 0x20000000, Type = 0xFFFFFFF2)  returns 0x00000005 (0000ms, 0692ms total)
T21C0 000:921 JLINK_Go() -- CPU_ReadMem(4 bytes @ 0xE0001000) (0003ms, 0695ms total)
T21C0 000:924 JLINK_IsHalted()  returns FALSE (0001ms, 0696ms total)
T21C0 000:953 JLINK_IsHalted()  returns FALSE (0000ms, 0695ms total)
T21C0 000:954 JLINK_IsHalted()  returns FALSE (0000ms, 0695ms total)
T21C0 000:955 JLINK_IsHalted() -- CPU_ReadMem(2 bytes @ 0x20000000)  returns TRUE (0004ms, 0699ms total)
T21C0 000:959 JLINK_ReadReg(R15 (PC))  returns 0x20000000 (0000ms, 0695ms total)
T21C0 000:959 JLINK_ClrBPEx(BPHandle = 0x00000005)  returns 0x00 (0000ms, 0695ms total)
T21C0 000:959 JLINK_ReadReg(R0)  returns 0x00000000 (0000ms, 0695ms total)
T21C0 000:960 JLINK_WriteMem(0x20000164, 0x0400 Bytes, ...) - Data: A0 FB 02 54 C1 F3 13 01 41 F4 80 11 C3 F3 13 03 ... -- CPU_WriteMem(1024 bytes @ 0x20000164)  returns 0x400 (0012ms, 0707ms total)
T21C0 000:972 JLINK_WriteReg(R0, 0x08000400)  returns 0x00 (0000ms, 0707ms total)
T21C0 000:972 JLINK_WriteReg(R1, 0x00000400)  returns 0x00 (0000ms, 0707ms total)
T21C0 000:972 JLINK_WriteReg(R2, 0x20000164)  returns 0x00 (0000ms, 0707ms total)
T21C0 000:972 JLINK_WriteReg(R3, 0x00000000)  returns 0x00 (0000ms, 0707ms total)
T21C0 000:972 JLINK_WriteReg(R4, 0x00000000)  returns 0x00 (0000ms, 0707ms total)
T21C0 000:972 JLINK_WriteReg(R5, 0x00000000)  returns 0x00 (0000ms, 0707ms total)
T21C0 000:972 JLINK_WriteReg(R6, 0x00000000)  returns 0x00 (0000ms, 0707ms total)
T21C0 000:972 JLINK_WriteReg(R7, 0x00000000)  returns 0x00 (0000ms, 0707ms total)
T21C0 000:972 JLINK_WriteReg(R8, 0x00000000)  returns 0x00 (0000ms, 0707ms total)
T21C0 000:972 JLINK_WriteReg(R9, 0x20000160)  returns 0x00 (0000ms, 0707ms total)
T21C0 000:972 JLINK_WriteReg(R10, 0x00000000)  returns 0x00 (0000ms, 0707ms total)
T21C0 000:972 JLINK_WriteReg(R11, 0x00000000)  returns 0x00 (0000ms, 0707ms total)
T21C0 000:972 JLINK_WriteReg(R12, 0x00000000)  returns 0x00 (0000ms, 0707ms total)
T21C0 000:972 JLINK_WriteReg(R13 (SP), 0x20001000)  returns 0x00 (0000ms, 0707ms total)
T21C0 000:972 JLINK_WriteReg(R14, 0x20000001)  returns 0x00 (0000ms, 0707ms total)
T21C0 000:972 JLINK_WriteReg(R15 (PC), 0x200000F4)  returns 0x00 (0000ms, 0707ms total)
T21C0 000:972 JLINK_WriteReg(XPSR, 0x01000000)  returns 0x00 (0000ms, 0707ms total)
T21C0 000:972 JLINK_WriteReg(MSP, 0x20001000)  returns 0x00 (0000ms, 0707ms total)
T21C0 000:972 JLINK_WriteReg(PSP, 0x20001000)  returns 0x00 (0000ms, 0707ms total)
T21C0 000:972 JLINK_WriteReg(CFBP, 0x00000000)  returns 0x00 (0000ms, 0707ms total)
T21C0 000:972 JLINK_SetBPEx(Addr = 0x20000000, Type = 0xFFFFFFF2)  returns 0x00000006 (0000ms, 0707ms total)
T21C0 000:972 JLINK_Go() -- CPU_ReadMem(4 bytes @ 0xE0001000) (0003ms, 0710ms total)
T21C0 000:975 JLINK_IsHalted()  returns FALSE (0001ms, 0711ms total)
T21C0 000:991 JLINK_IsHalted()  returns FALSE (0000ms, 0710ms total)
T21C0 000:992 JLINK_IsHalted()  returns FALSE (0000ms, 0710ms total)
T21C0 000:993 JLINK_IsHalted()  returns FALSE (0000ms, 0710ms total)
T21C0 000:994 JLINK_IsHalted()  returns FALSE (0000ms, 0710ms total)
T21C0 000:995 JLINK_IsHalted()  returns FALSE (0000ms, 0710ms total)
T21C0 000:996 JLINK_IsHalted()  returns FALSE (0000ms, 0710ms total)
T21C0 000:997 JLINK_IsHalted()  returns FALSE (0000ms, 0710ms total)
T21C0 000:998 JLINK_IsHalted()  returns FALSE (0000ms, 0710ms total)
T21C0 000:999 JLINK_IsHalted()  returns FALSE (0000ms, 0710ms total)
T21C0 001:006 JLINK_IsHalted() -- CPU_ReadMem(2 bytes @ 0x20000000)  returns TRUE (0004ms, 0714ms total)
T21C0 001:010 JLINK_ReadReg(R15 (PC))  returns 0x20000000 (0000ms, 0710ms total)
T21C0 001:010 JLINK_ClrBPEx(BPHandle = 0x00000006)  returns 0x00 (0000ms, 0710ms total)
T21C0 001:010 JLINK_ReadReg(R0)  returns 0x00000000 (0000ms, 0710ms total)
T21C0 001:010 JLINK_WriteMem(0x20000164, 0x0400 Bytes, ...) - Data: 21 F0 01 01 81 60 00 F0 11 FF 05 46 0F E0 00 BF ... -- CPU_WriteMem(1024 bytes @ 0x20000164)  returns 0x400 (0013ms, 0723ms total)
T21C0 001:023 JLINK_WriteReg(R0, 0x08000800)  returns 0x00 (0000ms, 0723ms total)
T21C0 001:023 JLINK_WriteReg(R1, 0x00000400)  returns 0x00 (0000ms, 0723ms total)
T21C0 001:023 JLINK_WriteReg(R2, 0x20000164)  returns 0x00 (0000ms, 0723ms total)
T21C0 001:023 JLINK_WriteReg(R3, 0x00000000)  returns 0x00 (0000ms, 0723ms total)
T21C0 001:023 JLINK_WriteReg(R4, 0x00000000)  returns 0x00 (0000ms, 0723ms total)
T21C0 001:023 JLINK_WriteReg(R5, 0x00000000)  returns 0x00 (0000ms, 0723ms total)
T21C0 001:023 JLINK_WriteReg(R6, 0x00000000)  returns 0x00 (0000ms, 0723ms total)
T21C0 001:023 JLINK_WriteReg(R7, 0x00000000)  returns 0x00 (0000ms, 0723ms total)
T21C0 001:023 JLINK_WriteReg(R8, 0x00000000)  returns 0x00 (0000ms, 0723ms total)
T21C0 001:023 JLINK_WriteReg(R9, 0x20000160)  returns 0x00 (0000ms, 0723ms total)
T21C0 001:023 JLINK_WriteReg(R10, 0x00000000)  returns 0x00 (0000ms, 0723ms total)
T21C0 001:023 JLINK_WriteReg(R11, 0x00000000)  returns 0x00 (0000ms, 0723ms total)
T21C0 001:023 JLINK_WriteReg(R12, 0x00000000)  returns 0x00 (0000ms, 0723ms total)
T21C0 001:023 JLINK_WriteReg(R13 (SP), 0x20001000)  returns 0x00 (0000ms, 0723ms total)
T21C0 001:023 JLINK_WriteReg(R14, 0x20000001)  returns 0x00 (0000ms, 0723ms total)
T21C0 001:023 JLINK_WriteReg(R15 (PC), 0x200000F4)  returns 0x00 (0000ms, 0723ms total)
T21C0 001:023 JLINK_WriteReg(XPSR, 0x01000000)  returns 0x00 (0000ms, 0723ms total)
T21C0 001:023 JLINK_WriteReg(MSP, 0x20001000)  returns 0x00 (0000ms, 0723ms total)
T21C0 001:023 JLINK_WriteReg(PSP, 0x20001000)  returns 0x00 (0000ms, 0723ms total)
T21C0 001:023 JLINK_WriteReg(CFBP, 0x00000000)  returns 0x00 (0000ms, 0723ms total)
T21C0 001:023 JLINK_SetBPEx(Addr = 0x20000000, Type = 0xFFFFFFF2)  returns 0x00000007 (0000ms, 0723ms total)
T21C0 001:023 JLINK_Go() -- CPU_ReadMem(4 bytes @ 0xE0001000) (0003ms, 0726ms total)
T21C0 001:026 JLINK_IsHalted()  returns FALSE (0001ms, 0727ms total)
T21C0 001:031 JLINK_IsHalted()  returns FALSE (0000ms, 0726ms total)
T21C0 001:032 JLINK_IsHalted()  returns FALSE (0000ms, 0726ms total)
T21C0 001:033 JLINK_IsHalted()  returns FALSE (0000ms, 0726ms total)
T21C0 001:034 JLINK_IsHalted()  returns FALSE (0000ms, 0726ms total)
T21C0 001:035 JLINK_IsHalted()  returns FALSE (0000ms, 0726ms total)
T21C0 001:036 JLINK_IsHalted()  returns FALSE (0000ms, 0726ms total)
T21C0 001:037 JLINK_IsHalted()  returns FALSE (0000ms, 0726ms total)
T21C0 001:041 JLINK_IsHalted()  returns FALSE (0000ms, 0726ms total)
T21C0 001:042 JLINK_IsHalted()  returns FALSE (0000ms, 0726ms total)
T21C0 001:043 JLINK_IsHalted()  returns FALSE (0000ms, 0726ms total)
T21C0 001:044 JLINK_IsHalted()  returns FALSE (0000ms, 0726ms total)
T21C0 001:045 JLINK_IsHalted()  returns FALSE (0000ms, 0726ms total)
T21C0 001:046 JLINK_IsHalted()  returns FALSE (0000ms, 0726ms total)
T21C0 001:050 JLINK_IsHalted()  returns FALSE (0000ms, 0726ms total)
T21C0 001:051 JLINK_IsHalted()  returns FALSE (0000ms, 0726ms total)
T21C0 001:052 JLINK_IsHalted()  returns FALSE (0000ms, 0726ms total)
T21C0 001:053 JLINK_IsHalted()  returns FALSE (0000ms, 0726ms total)
T21C0 001:054 JLINK_IsHalted()  returns FALSE (0000ms, 0726ms total)
T21C0 001:055 JLINK_IsHalted()  returns FALSE (0000ms, 0726ms total)
T21C0 001:056 JLINK_IsHalted()  returns FALSE (0000ms, 0726ms total)
T21C0 001:057 JLINK_IsHalted() -- CPU_ReadMem(2 bytes @ 0x20000000)  returns TRUE (0004ms, 0730ms total)
T21C0 001:061 JLINK_ReadReg(R15 (PC))  returns 0x20000000 (0000ms, 0726ms total)
T21C0 001:061 JLINK_ClrBPEx(BPHandle = 0x00000007)  returns 0x00 (0000ms, 0726ms total)
T21C0 001:061 JLINK_ReadReg(R0)  returns 0x00000000 (0000ms, 0726ms total)
T21C0 001:061 JLINK_WriteMem(0x20000164, 0x0400 Bytes, ...) - Data: E1 69 E3 68 0A 43 47 EA 43 01 0A 43 A1 68 4F F4 ... -- CPU_WriteMem(1024 bytes @ 0x20000164)  returns 0x400 (0013ms, 0739ms total)
T21C0 001:074 JLINK_WriteReg(R0, 0x08000C00)  returns 0x00 (0000ms, 0739ms total)
T21C0 001:074 JLINK_WriteReg(R1, 0x00000400)  returns 0x00 (0000ms, 0739ms total)
T21C0 001:074 JLINK_WriteReg(R2, 0x20000164)  returns 0x00 (0000ms, 0739ms total)
T21C0 001:074 JLINK_WriteReg(R3, 0x00000000)  returns 0x00 (0000ms, 0739ms total)
T21C0 001:074 JLINK_WriteReg(R4, 0x00000000)  returns 0x00 (0000ms, 0739ms total)
T21C0 001:074 JLINK_WriteReg(R5, 0x00000000)  returns 0x00 (0000ms, 0739ms total)
T21C0 001:074 JLINK_WriteReg(R6, 0x00000000)  returns 0x00 (0000ms, 0739ms total)
T21C0 001:074 JLINK_WriteReg(R7, 0x00000000)  returns 0x00 (0000ms, 0739ms total)
T21C0 001:074 JLINK_WriteReg(R8, 0x00000000)  returns 0x00 (0000ms, 0739ms total)
T21C0 001:074 JLINK_WriteReg(R9, 0x20000160)  returns 0x00 (0000ms, 0739ms total)
T21C0 001:074 JLINK_WriteReg(R10, 0x00000000)  returns 0x00 (0000ms, 0739ms total)
T21C0 001:074 JLINK_WriteReg(R11, 0x00000000)  returns 0x00 (0000ms, 0739ms total)
T21C0 001:074 JLINK_WriteReg(R12, 0x00000000)  returns 0x00 (0000ms, 0739ms total)
T21C0 001:074 JLINK_WriteReg(R13 (SP), 0x20001000)  returns 0x00 (0000ms, 0739ms total)
T21C0 001:074 JLINK_WriteReg(R14, 0x20000001)  returns 0x00 (0000ms, 0739ms total)
T21C0 001:074 JLINK_WriteReg(R15 (PC), 0x200000F4)  returns 0x00 (0000ms, 0739ms total)
T21C0 001:074 JLINK_WriteReg(XPSR, 0x01000000)  returns 0x00 (0000ms, 0739ms total)
T21C0 001:074 JLINK_WriteReg(MSP, 0x20001000)  returns 0x00 (0000ms, 0739ms total)
T21C0 001:074 JLINK_WriteReg(PSP, 0x20001000)  returns 0x00 (0000ms, 0739ms total)
T21C0 001:074 JLINK_WriteReg(CFBP, 0x00000000)  returns 0x00 (0000ms, 0739ms total)
T21C0 001:074 JLINK_SetBPEx(Addr = 0x20000000, Type = 0xFFFFFFF2)  returns 0x00000008 (0000ms, 0739ms total)
T21C0 001:074 JLINK_Go() -- CPU_ReadMem(4 bytes @ 0xE0001000) (0003ms, 0742ms total)
T21C0 001:077 JLINK_IsHalted()  returns FALSE (0001ms, 0743ms total)
T21C0 001:100 JLINK_IsHalted()  returns FALSE (0000ms, 0742ms total)
T21C0 001:101 JLINK_IsHalted()  returns FALSE (0000ms, 0742ms total)
T21C0 001:102 JLINK_IsHalted()  returns FALSE (0000ms, 0742ms total)
T21C0 001:103 JLINK_IsHalted()  returns FALSE (0000ms, 0742ms total)
T21C0 001:104 JLINK_IsHalted()  returns FALSE (0000ms, 0742ms total)
T21C0 001:105 JLINK_IsHalted()  returns FALSE (0000ms, 0742ms total)
T21C0 001:106 JLINK_IsHalted()  returns FALSE (0000ms, 0742ms total)
T21C0 001:107 JLINK_IsHalted()  returns FALSE (0000ms, 0742ms total)
T21C0 001:108 JLINK_IsHalted() -- CPU_ReadMem(2 bytes @ 0x20000000)  returns TRUE (0004ms, 0746ms total)
T21C0 001:112 JLINK_ReadReg(R15 (PC))  returns 0x20000000 (0000ms, 0742ms total)
T21C0 001:112 JLINK_ClrBPEx(BPHandle = 0x00000008)  returns 0x00 (0000ms, 0742ms total)
T21C0 001:112 JLINK_ReadReg(R0)  returns 0x00000000 (0000ms, 0742ms total)
T21C0 001:113 JLINK_WriteMem(0x20000164, 0x0400 Bytes, ...) - Data: 0B 68 23 F0 0A 03 0B 60 80 F8 21 20 01 68 A9 42 ... -- CPU_WriteMem(1024 bytes @ 0x20000164)  returns 0x400 (0012ms, 0754ms total)
T21C0 001:125 JLINK_WriteReg(R0, 0x08001000)  returns 0x00 (0000ms, 0754ms total)
T21C0 001:125 JLINK_WriteReg(R1, 0x00000400)  returns 0x00 (0000ms, 0754ms total)
T21C0 001:125 JLINK_WriteReg(R2, 0x20000164)  returns 0x00 (0000ms, 0754ms total)
T21C0 001:125 JLINK_WriteReg(R3, 0x00000000)  returns 0x00 (0000ms, 0754ms total)
T21C0 001:125 JLINK_WriteReg(R4, 0x00000000)  returns 0x00 (0000ms, 0754ms total)
T21C0 001:125 JLINK_WriteReg(R5, 0x00000000)  returns 0x00 (0000ms, 0754ms total)
T21C0 001:125 JLINK_WriteReg(R6, 0x00000000)  returns 0x00 (0000ms, 0754ms total)
T21C0 001:125 JLINK_WriteReg(R7, 0x00000000)  returns 0x00 (0000ms, 0754ms total)
T21C0 001:125 JLINK_WriteReg(R8, 0x00000000)  returns 0x00 (0000ms, 0754ms total)
T21C0 001:125 JLINK_WriteReg(R9, 0x20000160)  returns 0x00 (0000ms, 0754ms total)
T21C0 001:125 JLINK_WriteReg(R10, 0x00000000)  returns 0x00 (0000ms, 0754ms total)
T21C0 001:125 JLINK_WriteReg(R11, 0x00000000)  returns 0x00 (0000ms, 0754ms total)
T21C0 001:125 JLINK_WriteReg(R12, 0x00000000)  returns 0x00 (0000ms, 0754ms total)
T21C0 001:125 JLINK_WriteReg(R13 (SP), 0x20001000)  returns 0x00 (0000ms, 0754ms total)
T21C0 001:125 JLINK_WriteReg(R14, 0x20000001)  returns 0x00 (0000ms, 0754ms total)
T21C0 001:125 JLINK_WriteReg(R15 (PC), 0x200000F4)  returns 0x00 (0001ms, 0755ms total)
T21C0 001:126 JLINK_WriteReg(XPSR, 0x01000000)  returns 0x00 (0000ms, 0755ms total)
T21C0 001:126 JLINK_WriteReg(MSP, 0x20001000)  returns 0x00 (0000ms, 0755ms total)
T21C0 001:126 JLINK_WriteReg(PSP, 0x20001000)  returns 0x00 (0000ms, 0755ms total)
T21C0 001:126 JLINK_WriteReg(CFBP, 0x00000000)  returns 0x00 (0000ms, 0755ms total)
T21C0 001:126 JLINK_SetBPEx(Addr = 0x20000000, Type = 0xFFFFFFF2)  returns 0x00000009 (0000ms, 0755ms total)
T21C0 001:126 JLINK_Go() -- CPU_ReadMem(4 bytes @ 0xE0001000) (0002ms, 0757ms total)
T21C0 001:129 JLINK_IsHalted()  returns FALSE (0000ms, 0757ms total)
T21C0 001:137 JLINK_IsHalted()  returns FALSE (0000ms, 0757ms total)
T21C0 001:138 JLINK_IsHalted()  returns FALSE (0000ms, 0757ms total)
T21C0 001:139 JLINK_IsHalted()  returns FALSE (0000ms, 0757ms total)
T21C0 001:140 JLINK_IsHalted()  returns FALSE (0000ms, 0757ms total)
T21C0 001:141 JLINK_IsHalted()  returns FALSE (0000ms, 0757ms total)
T21C0 001:142 JLINK_IsHalted()  returns FALSE (0000ms, 0757ms total)
T21C0 001:143 JLINK_IsHalted()  returns FALSE (0000ms, 0757ms total)
T21C0 001:144 JLINK_IsHalted()  returns FALSE (0000ms, 0757ms total)
T21C0 001:145 JLINK_IsHalted()  returns FALSE (0000ms, 0757ms total)
T21C0 001:146 JLINK_IsHalted()  returns FALSE (0000ms, 0757ms total)
T21C0 001:147 JLINK_IsHalted()  returns FALSE (0000ms, 0757ms total)
T21C0 001:148 JLINK_IsHalted()  returns FALSE (0000ms, 0757ms total)
T21C0 001:153 JLINK_IsHalted()  returns FALSE (0000ms, 0757ms total)
T21C0 001:154 JLINK_IsHalted()  returns FALSE (0000ms, 0757ms total)
T21C0 001:155 JLINK_IsHalted()  returns FALSE (0000ms, 0757ms total)
T21C0 001:156 JLINK_IsHalted()  returns FALSE (0000ms, 0757ms total)
T21C0 001:157 JLINK_IsHalted()  returns FALSE (0000ms, 0757ms total)
T21C0 001:161 JLINK_IsHalted() -- CPU_ReadMem(2 bytes @ 0x20000000)  returns TRUE (0004ms, 0761ms total)
T21C0 001:165 JLINK_ReadReg(R15 (PC))  returns 0x20000000 (0000ms, 0757ms total)
T21C0 001:165 JLINK_ClrBPEx(BPHandle = 0x00000009)  returns 0x00 (0000ms, 0757ms total)
T21C0 001:165 JLINK_ReadReg(R0)  returns 0x00000000 (0000ms, 0757ms total)
T21C0 001:166 JLINK_WriteMem(0x20000164, 0x0400 Bytes, ...) - Data: FE F7 3C FF 42 46 4B 46 FE F7 38 FF FF F7 01 F9 ... -- CPU_WriteMem(1024 bytes @ 0x20000164)  returns 0x400 (0012ms, 0769ms total)
T21C0 001:178 JLINK_WriteReg(R0, 0x08001400)  returns 0x00 (0000ms, 0769ms total)
T21C0 001:178 JLINK_WriteReg(R1, 0x00000400)  returns 0x00 (0000ms, 0769ms total)
T21C0 001:178 JLINK_WriteReg(R2, 0x20000164)  returns 0x00 (0000ms, 0769ms total)
T21C0 001:178 JLINK_WriteReg(R3, 0x00000000)  returns 0x00 (0000ms, 0769ms total)
T21C0 001:178 JLINK_WriteReg(R4, 0x00000000)  returns 0x00 (0000ms, 0769ms total)
T21C0 001:178 JLINK_WriteReg(R5, 0x00000000)  returns 0x00 (0000ms, 0769ms total)
T21C0 001:178 JLINK_WriteReg(R6, 0x00000000)  returns 0x00 (0000ms, 0769ms total)
T21C0 001:178 JLINK_WriteReg(R7, 0x00000000)  returns 0x00 (0000ms, 0769ms total)
T21C0 001:178 JLINK_WriteReg(R8, 0x00000000)  returns 0x00 (0000ms, 0769ms total)
T21C0 001:178 JLINK_WriteReg(R9, 0x20000160)  returns 0x00 (0000ms, 0769ms total)
T21C0 001:178 JLINK_WriteReg(R10, 0x00000000)  returns 0x00 (0000ms, 0769ms total)
T21C0 001:178 JLINK_WriteReg(R11, 0x00000000)  returns 0x00 (0000ms, 0769ms total)
T21C0 001:178 JLINK_WriteReg(R12, 0x00000000)  returns 0x00 (0000ms, 0769ms total)
T21C0 001:178 JLINK_WriteReg(R13 (SP), 0x20001000)  returns 0x00 (0000ms, 0769ms total)
T21C0 001:178 JLINK_WriteReg(R14, 0x20000001)  returns 0x00 (0001ms, 0770ms total)
T21C0 001:179 JLINK_WriteReg(R15 (PC), 0x200000F4)  returns 0x00 (0000ms, 0770ms total)
T21C0 001:179 JLINK_WriteReg(XPSR, 0x01000000)  returns 0x00 (0000ms, 0770ms total)
T21C0 001:179 JLINK_WriteReg(MSP, 0x20001000)  returns 0x00 (0000ms, 0770ms total)
T21C0 001:179 JLINK_WriteReg(PSP, 0x20001000)  returns 0x00 (0000ms, 0770ms total)
T21C0 001:179 JLINK_WriteReg(CFBP, 0x00000000)  returns 0x00 (0000ms, 0770ms total)
T21C0 001:179 JLINK_SetBPEx(Addr = 0x20000000, Type = 0xFFFFFFF2)  returns 0x0000000A (0000ms, 0770ms total)
T21C0 001:179 JLINK_Go() -- CPU_ReadMem(4 bytes @ 0xE0001000) (0003ms, 0773ms total)
T21C0 001:182 JLINK_IsHalted()  returns FALSE (0001ms, 0774ms total)
T21C0 001:202 JLINK_IsHalted()  returns FALSE (0000ms, 0773ms total)
T21C0 001:203 JLINK_IsHalted()  returns FALSE (0000ms, 0773ms total)
T21C0 001:208 JLINK_IsHalted()  returns FALSE (0000ms, 0773ms total)
T21C0 001:209 JLINK_IsHalted()  returns FALSE (0000ms, 0773ms total)
T21C0 001:210 JLINK_IsHalted()  returns FALSE (0000ms, 0773ms total)
T21C0 001:211 JLINK_IsHalted()  returns FALSE (0000ms, 0773ms total)
T21C0 001:212 JLINK_IsHalted()  returns FALSE (0000ms, 0773ms total)
T21C0 001:213 JLINK_IsHalted() -- CPU_ReadMem(2 bytes @ 0x20000000)  returns TRUE (0004ms, 0777ms total)
T21C0 001:217 JLINK_ReadReg(R15 (PC))  returns 0x20000000 (0000ms, 0773ms total)
T21C0 001:217 JLINK_ClrBPEx(BPHandle = 0x0000000A)  returns 0x00 (0000ms, 0773ms total)
T21C0 001:217 JLINK_ReadReg(R0)  returns 0x00000000 (0000ms, 0773ms total)
T21C0 001:217 JLINK_WriteMem(0x20000164, 0x0400 Bytes, ...) - Data: C1 F3 81 31 49 1C 49 00 DA E7 00 00 02 03 04 05 ... -- CPU_WriteMem(1024 bytes @ 0x20000164)  returns 0x400 (0013ms, 0786ms total)
T21C0 001:230 JLINK_WriteReg(R0, 0x08001800)  returns 0x00 (0000ms, 0786ms total)
T21C0 001:230 JLINK_WriteReg(R1, 0x00000400)  returns 0x00 (0000ms, 0786ms total)
T21C0 001:230 JLINK_WriteReg(R2, 0x20000164)  returns 0x00 (0000ms, 0786ms total)
T21C0 001:230 JLINK_WriteReg(R3, 0x00000000)  returns 0x00 (0000ms, 0786ms total)
T21C0 001:230 JLINK_WriteReg(R4, 0x00000000)  returns 0x00 (0000ms, 0786ms total)
T21C0 001:230 JLINK_WriteReg(R5, 0x00000000)  returns 0x00 (0000ms, 0786ms total)
T21C0 001:230 JLINK_WriteReg(R6, 0x00000000)  returns 0x00 (0000ms, 0786ms total)
T21C0 001:230 JLINK_WriteReg(R7, 0x00000000)  returns 0x00 (0000ms, 0786ms total)
T21C0 001:230 JLINK_WriteReg(R8, 0x00000000)  returns 0x00 (0000ms, 0786ms total)
T21C0 001:230 JLINK_WriteReg(R9, 0x20000160)  returns 0x00 (0000ms, 0786ms total)
T21C0 001:230 JLINK_WriteReg(R10, 0x00000000)  returns 0x00 (0000ms, 0786ms total)
T21C0 001:230 JLINK_WriteReg(R11, 0x00000000)  returns 0x00 (0000ms, 0786ms total)
T21C0 001:230 JLINK_WriteReg(R12, 0x00000000)  returns 0x00 (0000ms, 0786ms total)
T21C0 001:230 JLINK_WriteReg(R13 (SP), 0x20001000)  returns 0x00 (0000ms, 0786ms total)
T21C0 001:230 JLINK_WriteReg(R14, 0x20000001)  returns 0x00 (0000ms, 0786ms total)
T21C0 001:230 JLINK_WriteReg(R15 (PC), 0x200000F4)  returns 0x00 (0000ms, 0786ms total)
T21C0 001:230 JLINK_WriteReg(XPSR, 0x01000000)  returns 0x00 (0000ms, 0786ms total)
T21C0 001:230 JLINK_WriteReg(MSP, 0x20001000)  returns 0x00 (0000ms, 0786ms total)
T21C0 001:230 JLINK_WriteReg(PSP, 0x20001000)  returns 0x00 (0000ms, 0786ms total)
T21C0 001:230 JLINK_WriteReg(CFBP, 0x00000000)  returns 0x00 (0000ms, 0786ms total)
T21C0 001:230 JLINK_SetBPEx(Addr = 0x20000000, Type = 0xFFFFFFF2)  returns 0x0000000B (0000ms, 0786ms total)
T21C0 001:230 JLINK_Go() -- CPU_ReadMem(4 bytes @ 0xE0001000) (0003ms, 0789ms total)
T21C0 001:233 JLINK_IsHalted()  returns FALSE (0001ms, 0790ms total)
T21C0 001:239 JLINK_IsHalted()  returns FALSE (0000ms, 0789ms total)
T21C0 001:240 JLINK_IsHalted()  returns FALSE (0000ms, 0789ms total)
T21C0 001:241 JLINK_IsHalted()  returns FALSE (0000ms, 0789ms total)
T21C0 001:242 JLINK_IsHalted()  returns FALSE (0000ms, 0789ms total)
T21C0 001:243 JLINK_IsHalted()  returns FALSE (0000ms, 0789ms total)
T21C0 001:244 JLINK_IsHalted()  returns FALSE (0000ms, 0789ms total)
T21C0 001:245 JLINK_IsHalted()  returns FALSE (0000ms, 0789ms total)
T21C0 001:246 JLINK_IsHalted()  returns FALSE (0000ms, 0789ms total)
T21C0 001:247 JLINK_IsHalted()  returns FALSE (0000ms, 0789ms total)
T21C0 001:248 JLINK_IsHalted()  returns FALSE (0000ms, 0789ms total)
T21C0 001:249 JLINK_IsHalted()  returns FALSE (0000ms, 0789ms total)
T21C0 001:253 JLINK_IsHalted()  returns FALSE (0000ms, 0789ms total)
T21C0 001:254 JLINK_IsHalted()  returns FALSE (0000ms, 0789ms total)
T21C0 001:255 JLINK_IsHalted()  returns FALSE (0000ms, 0789ms total)
T21C0 001:256 JLINK_IsHalted()  returns FALSE (0000ms, 0789ms total)
T21C0 001:257 JLINK_IsHalted()  returns FALSE (0000ms, 0789ms total)
T21C0 001:258 JLINK_IsHalted()  returns FALSE (0000ms, 0789ms total)
T21C0 001:259 JLINK_IsHalted()  returns FALSE (0000ms, 0789ms total)
T21C0 001:260 JLINK_IsHalted()  returns FALSE (0000ms, 0789ms total)
T21C0 001:261 JLINK_IsHalted()  returns FALSE (0000ms, 0789ms total)
T21C0 001:262 JLINK_IsHalted()  returns FALSE (0000ms, 0789ms total)
T21C0 001:263 JLINK_IsHalted()  returns FALSE (0000ms, 0789ms total)
T21C0 001:264 JLINK_IsHalted() -- CPU_ReadMem(2 bytes @ 0x20000000)  returns TRUE (0004ms, 0793ms total)
T21C0 001:268 JLINK_ReadReg(R15 (PC))  returns 0x20000000 (0000ms, 0789ms total)
T21C0 001:268 JLINK_ClrBPEx(BPHandle = 0x0000000B)  returns 0x00 (0000ms, 0789ms total)
T21C0 001:268 JLINK_ReadReg(R0)  returns 0x00000000 (0000ms, 0789ms total)
T21C0 001:268 JLINK_WriteMem(0x20000164, 0x0400 Bytes, ...) - Data: C4 D8 28 68 80 07 F7 D5 28 68 61 69 20 F0 F8 00 ... -- CPU_WriteMem(1024 bytes @ 0x20000164)  returns 0x400 (0013ms, 0802ms total)
T21C0 001:281 JLINK_WriteReg(R0, 0x08001C00)  returns 0x00 (0000ms, 0802ms total)
T21C0 001:281 JLINK_WriteReg(R1, 0x00000400)  returns 0x00 (0000ms, 0802ms total)
T21C0 001:281 JLINK_WriteReg(R2, 0x20000164)  returns 0x00 (0000ms, 0802ms total)
T21C0 001:281 JLINK_WriteReg(R3, 0x00000000)  returns 0x00 (0000ms, 0802ms total)
T21C0 001:281 JLINK_WriteReg(R4, 0x00000000)  returns 0x00 (0000ms, 0802ms total)
T21C0 001:281 JLINK_WriteReg(R5, 0x00000000)  returns 0x00 (0000ms, 0802ms total)
T21C0 001:281 JLINK_WriteReg(R6, 0x00000000)  returns 0x00 (0000ms, 0802ms total)
T21C0 001:281 JLINK_WriteReg(R7, 0x00000000)  returns 0x00 (0000ms, 0802ms total)
T21C0 001:281 JLINK_WriteReg(R8, 0x00000000)  returns 0x00 (0000ms, 0802ms total)
T21C0 001:281 JLINK_WriteReg(R9, 0x20000160)  returns 0x00 (0000ms, 0802ms total)
T21C0 001:281 JLINK_WriteReg(R10, 0x00000000)  returns 0x00 (0000ms, 0802ms total)
T21C0 001:281 JLINK_WriteReg(R11, 0x00000000)  returns 0x00 (0000ms, 0802ms total)
T21C0 001:281 JLINK_WriteReg(R12, 0x00000000)  returns 0x00 (0000ms, 0802ms total)
T21C0 001:281 JLINK_WriteReg(R13 (SP), 0x20001000)  returns 0x00 (0000ms, 0802ms total)
T21C0 001:281 JLINK_WriteReg(R14, 0x20000001)  returns 0x00 (0000ms, 0802ms total)
T21C0 001:281 JLINK_WriteReg(R15 (PC), 0x200000F4)  returns 0x00 (0000ms, 0802ms total)
T21C0 001:281 JLINK_WriteReg(XPSR, 0x01000000)  returns 0x00 (0000ms, 0802ms total)
T21C0 001:281 JLINK_WriteReg(MSP, 0x20001000)  returns 0x00 (0000ms, 0802ms total)
T21C0 001:281 JLINK_WriteReg(PSP, 0x20001000)  returns 0x00 (0000ms, 0802ms total)
T21C0 001:281 JLINK_WriteReg(CFBP, 0x00000000)  returns 0x00 (0000ms, 0802ms total)
T21C0 001:281 JLINK_SetBPEx(Addr = 0x20000000, Type = 0xFFFFFFF2)  returns 0x0000000C (0000ms, 0802ms total)
T21C0 001:281 JLINK_Go() -- CPU_ReadMem(4 bytes @ 0xE0001000) (0003ms, 0805ms total)
T21C0 001:284 JLINK_IsHalted()  returns FALSE (0001ms, 0806ms total)
T21C0 001:305 JLINK_IsHalted()  returns FALSE (0000ms, 0805ms total)
T21C0 001:306 JLINK_IsHalted()  returns FALSE (0000ms, 0805ms total)
T21C0 001:307 JLINK_IsHalted()  returns FALSE (0000ms, 0805ms total)
T21C0 001:308 JLINK_IsHalted()  returns FALSE (0000ms, 0805ms total)
T21C0 001:309 JLINK_IsHalted()  returns FALSE (0000ms, 0805ms total)
T21C0 001:310 JLINK_IsHalted()  returns FALSE (0000ms, 0805ms total)
T21C0 001:311 JLINK_IsHalted()  returns FALSE (0000ms, 0805ms total)
T21C0 001:312 JLINK_IsHalted()  returns FALSE (0000ms, 0805ms total)
T21C0 001:313 JLINK_IsHalted()  returns FALSE (0000ms, 0805ms total)
T21C0 001:314 JLINK_IsHalted()  returns FALSE (0000ms, 0805ms total)
T21C0 001:315 JLINK_IsHalted() -- CPU_ReadMem(2 bytes @ 0x20000000)  returns TRUE (0004ms, 0809ms total)
T21C0 001:319 JLINK_ReadReg(R15 (PC))  returns 0x20000000 (0000ms, 0805ms total)
T21C0 001:319 JLINK_ClrBPEx(BPHandle = 0x0000000C)  returns 0x00 (0000ms, 0805ms total)
T21C0 001:319 JLINK_ReadReg(R0)  returns 0x00000000 (0000ms, 0805ms total)
T21C0 001:320 JLINK_WriteMem(0x20000164, 0x0400 Bytes, ...) - Data: E0 8E 40 1E E0 86 0B E0 B9 F1 00 0F 14 D0 B9 F1 ... -- CPU_WriteMem(1024 bytes @ 0x20000164)  returns 0x400 (0012ms, 0817ms total)
T21C0 001:332 JLINK_WriteReg(R0, 0x08002000)  returns 0x00 (0000ms, 0817ms total)
T21C0 001:332 JLINK_WriteReg(R1, 0x00000400)  returns 0x00 (0000ms, 0817ms total)
T21C0 001:332 JLINK_WriteReg(R2, 0x20000164)  returns 0x00 (0000ms, 0817ms total)
T21C0 001:332 JLINK_WriteReg(R3, 0x00000000)  returns 0x00 (0000ms, 0817ms total)
T21C0 001:332 JLINK_WriteReg(R4, 0x00000000)  returns 0x00 (0000ms, 0817ms total)
T21C0 001:332 JLINK_WriteReg(R5, 0x00000000)  returns 0x00 (0000ms, 0817ms total)
T21C0 001:332 JLINK_WriteReg(R6, 0x00000000)  returns 0x00 (0000ms, 0817ms total)
T21C0 001:332 JLINK_WriteReg(R7, 0x00000000)  returns 0x00 (0000ms, 0817ms total)
T21C0 001:332 JLINK_WriteReg(R8, 0x00000000)  returns 0x00 (0001ms, 0818ms total)
T21C0 001:333 JLINK_WriteReg(R9, 0x20000160)  returns 0x00 (0000ms, 0818ms total)
T21C0 001:333 JLINK_WriteReg(R10, 0x00000000)  returns 0x00 (0000ms, 0818ms total)
T21C0 001:333 JLINK_WriteReg(R11, 0x00000000)  returns 0x00 (0000ms, 0818ms total)
T21C0 001:333 JLINK_WriteReg(R12, 0x00000000)  returns 0x00 (0000ms, 0818ms total)
T21C0 001:333 JLINK_WriteReg(R13 (SP), 0x20001000)  returns 0x00 (0000ms, 0818ms total)
T21C0 001:333 JLINK_WriteReg(R14, 0x20000001)  returns 0x00 (0000ms, 0818ms total)
T21C0 001:333 JLINK_WriteReg(R15 (PC), 0x200000F4)  returns 0x00 (0000ms, 0818ms total)
T21C0 001:333 JLINK_WriteReg(XPSR, 0x01000000)  returns 0x00 (0000ms, 0818ms total)
T21C0 001:333 JLINK_WriteReg(MSP, 0x20001000)  returns 0x00 (0000ms, 0818ms total)
T21C0 001:333 JLINK_WriteReg(PSP, 0x20001000)  returns 0x00 (0000ms, 0818ms total)
T21C0 001:333 JLINK_WriteReg(CFBP, 0x00000000)  returns 0x00 (0000ms, 0818ms total)
T21C0 001:333 JLINK_SetBPEx(Addr = 0x20000000, Type = 0xFFFFFFF2)  returns 0x0000000D (0000ms, 0818ms total)
T21C0 001:333 JLINK_Go() -- CPU_ReadMem(4 bytes @ 0xE0001000) (0003ms, 0821ms total)
T21C0 001:336 JLINK_IsHalted()  returns FALSE (0001ms, 0822ms total)
T21C0 001:343 JLINK_IsHalted()  returns FALSE (0000ms, 0821ms total)
T21C0 001:344 JLINK_IsHalted()  returns FALSE (0000ms, 0821ms total)
T21C0 001:345 JLINK_IsHalted()  returns FALSE (0000ms, 0821ms total)
T21C0 001:346 JLINK_IsHalted()  returns FALSE (0000ms, 0821ms total)
T21C0 001:347 JLINK_IsHalted()  returns FALSE (0000ms, 0821ms total)
T21C0 001:352 JLINK_IsHalted()  returns FALSE (0000ms, 0821ms total)
T21C0 001:353 JLINK_IsHalted()  returns FALSE (0000ms, 0821ms total)
T21C0 001:354 JLINK_IsHalted()  returns FALSE (0000ms, 0821ms total)
T21C0 001:355 JLINK_IsHalted()  returns FALSE (0000ms, 0821ms total)
T21C0 001:356 JLINK_IsHalted()  returns FALSE (0000ms, 0821ms total)
T21C0 001:357 JLINK_IsHalted()  returns FALSE (0000ms, 0821ms total)
T21C0 001:358 JLINK_IsHalted()  returns FALSE (0000ms, 0821ms total)
T21C0 001:359 JLINK_IsHalted()  returns FALSE (0000ms, 0821ms total)
T21C0 001:364 JLINK_IsHalted()  returns FALSE (0000ms, 0821ms total)
T21C0 001:365 JLINK_IsHalted()  returns FALSE (0000ms, 0821ms total)
T21C0 001:366 JLINK_IsHalted()  returns FALSE (0000ms, 0821ms total)
T21C0 001:367 JLINK_IsHalted() -- CPU_ReadMem(2 bytes @ 0x20000000)  returns TRUE (0004ms, 0825ms total)
T21C0 001:371 JLINK_ReadReg(R15 (PC))  returns 0x20000000 (0000ms, 0821ms total)
T21C0 001:371 JLINK_ClrBPEx(BPHandle = 0x0000000D)  returns 0x00 (0000ms, 0821ms total)
T21C0 001:371 JLINK_ReadReg(R0)  returns 0x00000000 (0000ms, 0821ms total)
T21C0 001:372 JLINK_WriteMem(0x20000164, 0x0400 Bytes, ...) - Data: 21 1D 20 68 00 F0 2C FC 01 20 84 F8 3D 00 00 20 ... -- CPU_WriteMem(1024 bytes @ 0x20000164)  returns 0x400 (0012ms, 0833ms total)
T21C0 001:384 JLINK_WriteReg(R0, 0x08002400)  returns 0x00 (0000ms, 0833ms total)
T21C0 001:384 JLINK_WriteReg(R1, 0x00000400)  returns 0x00 (0000ms, 0833ms total)
T21C0 001:384 JLINK_WriteReg(R2, 0x20000164)  returns 0x00 (0000ms, 0833ms total)
T21C0 001:384 JLINK_WriteReg(R3, 0x00000000)  returns 0x00 (0000ms, 0833ms total)
T21C0 001:384 JLINK_WriteReg(R4, 0x00000000)  returns 0x00 (0000ms, 0833ms total)
T21C0 001:384 JLINK_WriteReg(R5, 0x00000000)  returns 0x00 (0000ms, 0833ms total)
T21C0 001:384 JLINK_WriteReg(R6, 0x00000000)  returns 0x00 (0000ms, 0833ms total)
T21C0 001:384 JLINK_WriteReg(R7, 0x00000000)  returns 0x00 (0000ms, 0833ms total)
T21C0 001:384 JLINK_WriteReg(R8, 0x00000000)  returns 0x00 (0000ms, 0833ms total)
T21C0 001:384 JLINK_WriteReg(R9, 0x20000160)  returns 0x00 (0000ms, 0833ms total)
T21C0 001:384 JLINK_WriteReg(R10, 0x00000000)  returns 0x00 (0000ms, 0833ms total)
T21C0 001:384 JLINK_WriteReg(R11, 0x00000000)  returns 0x00 (0000ms, 0833ms total)
T21C0 001:384 JLINK_WriteReg(R12, 0x00000000)  returns 0x00 (0000ms, 0833ms total)
T21C0 001:384 JLINK_WriteReg(R13 (SP), 0x20001000)  returns 0x00 (0001ms, 0834ms total)
T21C0 001:385 JLINK_WriteReg(R14, 0x20000001)  returns 0x00 (0000ms, 0834ms total)
T21C0 001:385 JLINK_WriteReg(R15 (PC), 0x200000F4)  returns 0x00 (0000ms, 0834ms total)
T21C0 001:385 JLINK_WriteReg(XPSR, 0x01000000)  returns 0x00 (0000ms, 0834ms total)
T21C0 001:385 JLINK_WriteReg(MSP, 0x20001000)  returns 0x00 (0000ms, 0834ms total)
T21C0 001:385 JLINK_WriteReg(PSP, 0x20001000)  returns 0x00 (0000ms, 0834ms total)
T21C0 001:385 JLINK_WriteReg(CFBP, 0x00000000)  returns 0x00 (0000ms, 0834ms total)
T21C0 001:385 JLINK_SetBPEx(Addr = 0x20000000, Type = 0xFFFFFFF2)  returns 0x0000000E (0000ms, 0834ms total)
T21C0 001:385 JLINK_Go() -- CPU_ReadMem(4 bytes @ 0xE0001000) (0003ms, 0837ms total)
T21C0 001:388 JLINK_IsHalted()  returns FALSE (0001ms, 0838ms total)
T21C0 001:413 JLINK_IsHalted()  returns FALSE (0000ms, 0837ms total)
T21C0 001:414 JLINK_IsHalted()  returns FALSE (0000ms, 0837ms total)
T21C0 001:415 JLINK_IsHalted()  returns FALSE (0000ms, 0837ms total)
T21C0 001:416 JLINK_IsHalted()  returns FALSE (0000ms, 0837ms total)
T21C0 001:417 JLINK_IsHalted()  returns FALSE (0000ms, 0837ms total)
